(1712178335.533532) can0 00000901#0000000000000002
(1712178335.533801) can0 00000E01#0000003300000000
(1712178335.534082) can0 00000F01#0000031500000000
(1712178335.534369) can0 00001001#00DBFC8300003D86
(1712178335.553798) can0 00000901#0000000000000001
(1712178335.554085) can0 00000E01#0000003300000000
(1712178335.554361) can0 00000F01#0000031500000000
(1712178335.554645) can0 00001001#00DBFC8200003D86
(1712178335.573985) can0 00000901#0000000000000002
(1712178335.574260) can0 00000E01#0000003300000000
(1712178335.574542) can0 00000F01#0000031500000000
(1712178335.574829) can0 00001001#00DBFC8100003D86
(1712178335.594253) can0 00000901#0000000000000002
(1712178335.594528) can0 00000E01#0000003300000000
(1712178335.594810) can0 00000F01#0000031500000000
(1712178335.595093) can0 00001001#00DBFC8200003D86
(1712178335.614452) can0 00000901#0000000000000002
(1712178335.614733) can0 00000E01#0000003300000000
(1712178335.615010) can0 00000F01#0000031500000000
(1712178335.615297) can0 00001001#00DBFC8100003D86
(1712178335.634709) can0 00000901#0000000000000002
(1712178335.634977) can0 00000E01#0000003300000000
(1712178335.635266) can0 00000F01#0000031500000000
(1712178335.635551) can0 00001001#00DBFC8300003D86
(1712178335.654886) can0 00000901#0000000000000002
(1712178335.655174) can0 00000E01#0000003300000000
(1712178335.655466) can0 00000F01#0000031500000000
(1712178335.655752) can0 00001001#00DBFC8500003D86
(1712178335.675129) can0 00000901#0000000000000001
(1712178335.675418) can0 00000E01#0000003300000000
(1712178335.675710) can0 00000F01#0000031500000000
(1712178335.675995) can0 00001001#00DBFC8800003D86
(1712178335.695389) can0 00000901#0000000000000002
(1712178335.695669) can0 00000E01#0000003300000000
(1712178335.695946) can0 00000F01#0000031500000000
(1712178335.696231) can0 00001001#00DBFC8600003D86
(1712178335.715601) can0 00000901#0000000000000002
(1712178335.715883) can0 00000E01#0000003300000000
(1712178335.716174) can0 00000F01#0000031500000000
(1712178335.716458) can0 00001001#00DBFC8600003D86
(1712178335.735815) can0 00000901#0000000000000002
(1712178335.736102) can0 00000E01#0000003300000000
(1712178335.736392) can0 00000F01#0000031500000000
(1712178335.736677) can0 00001001#00DBFC8800003D86
(1712178335.756086) can0 00000901#0000000000000002
(1712178335.756374) can0 00000E01#0000003300000000
(1712178335.756666) can0 00000F01#0000031500000000
(1712178335.756954) can0 00001001#00DBFC8A00003D86
(1712178335.776272) can0 00000901#0000000000000001
(1712178335.776561) can0 00000E01#0000003300000000
(1712178335.776854) can0 00000F01#0000031500000000
(1712178335.777138) can0 00001001#00DBFC8800003D86
(1712178335.796565) can0 00000901#0000000000000002
(1712178335.796832) can0 00000E01#0000003300000000
(1712178335.797119) can0 00000F01#0000031500000000
(1712178335.797400) can0 00001001#00DBFC8700003D86
(1712178335.816747) can0 00000901#0000000000000002
(1712178335.817027) can0 00000E01#0000003300000000
(1712178335.817319) can0 00000F01#0000031500000000
(1712178335.817606) can0 00001001#00DBFC8400003D86
(1712178335.836985) can0 00000901#0000000000000002
(1712178335.837274) can0 00000E01#0000003300000000
(1712178335.837567) can0 00000F01#0000031500000000
(1712178335.837851) can0 00001001#00DBFC8100003D86
(1712178335.857224) can0 00000901#0000000000000002
(1712178335.857501) can0 00000E01#0000003300000000
(1712178335.857790) can0 00000F01#0000031500000000
(1712178335.858069) can0 00001001#00DBFC8100003D86
(1712178335.877449) can0 00000901#0000000000000002
(1712178335.877741) can0 00000E01#0000003300000000
(1712178335.878033) can0 00000F01#0000031500000000
(1712178335.878320) can0 00001001#00DBFC8000003D86
(1712178335.897693) can0 00000901#0000000000000002
(1712178335.897970) can0 00000E01#0000003300000000
(1712178335.898250) can0 00000F01#0000031500000000
(1712178335.898536) can0 00001001#00DBFC8400003D86
(1712178335.917912) can0 00000901#0000000000000002
(1712178335.918200) can0 00000E01#0000003300000000
(1712178335.918492) can0 00000F01#0000031500000000
(1712178335.918778) can0 00001001#00DBFC8300003D86
(1712178335.938137) can0 00000901#0000000000000002
(1712178335.938422) can0 00000E01#0000003300000000
(1712178335.938710) can0 00000F01#0000031500000000
(1712178335.938997) can0 00001001#00DBFC8400003D86
(1712178335.958407) can0 00000901#0000000000000002
(1712178335.958694) can0 00000E01#0000003300000000
(1712178335.958985) can0 00000F01#0000031500000000
(1712178335.959270) can0 00001001#00DBFC8300003D86
(1712178335.978596) can0 00000901#0000000000000002
(1712178335.978883) can0 00000E01#0000003300000000
(1712178335.979175) can0 00000F01#0000031500000000
(1712178335.979459) can0 00001001#00DBFC8200003D86
(1712178335.998880) can0 00000901#0000000000000002
(1712178335.999155) can0 00000E01#0000003300000000
(1712178335.999443) can0 00000F01#0000031500000000
(1712178335.999726) can0 00001001#00DBFC8300003D86
(1712178336.019079) can0 00000901#0000000000000002
(1712178336.019348) can0 00000E01#0000003300000000
(1712178336.019638) can0 00000F01#0000031500000000
(1712178336.019930) can0 00001001#00DBFC8600003D86
(1712178336.039303) can0 00000901#0000000000000002
(1712178336.039591) can0 00000E01#0000003300000000
(1712178336.039883) can0 00000F01#0000031500000000
(1712178336.040168) can0 00001001#00DBFC8600003D85
(1712178336.059518) can0 00000901#0000000000000002
(1712178336.059808) can0 00000E01#0000003300000000
(1712178336.060100) can0 00000F01#0000031500000000
(1712178336.060383) can0 00001001#00DBFC8700003D86
(1712178336.079777) can0 00000901#0000000000000002
(1712178336.080056) can0 00000E01#0000003300000000
(1712178336.080345) can0 00000F01#0000031500000000
(1712178336.080630) can0 00001001#00DBFC8800003D86
(1712178336.100006) can0 00000901#0000000000000002
(1712178336.100292) can0 00000E01#0000003300000000
(1712178336.100590) can0 00000F01#0000031500000000
(1712178336.100871) can0 00001001#00DBFC8800003D86
(1712178336.120252) can0 00000901#0000000000000002
(1712178336.120524) can0 00000E01#0000003300000000
(1712178336.120811) can0 00000F01#0000031500000000
(1712178336.121095) can0 00001001#00DBFC8A00003D86
(1712178336.140447) can0 00000901#0000000000000002
(1712178336.140745) can0 00000E01#0000003300000000
(1712178336.141028) can0 00000F01#0000031500000000
(1712178336.141312) can0 00001001#00DBFC8800003D86
(1712178336.160759) can0 00000901#0000000000000001
(1712178336.161012) can0 00000E01#0000003300000000
(1712178336.161301) can0 00000F01#0000031500000000
(1712178336.161588) can0 00001001#00DBFC8C00003D86
(1712178336.180912) can0 00000901#0000000000000002
(1712178336.181200) can0 00000E01#0000003300000000
(1712178336.181492) can0 00000F01#0000031500000000
(1712178336.181776) can0 00001001#00DBFC8700003D86
(1712178336.201175) can0 00000901#0000000000000002
(1712178336.201461) can0 00000E01#0000003300000000
(1712178336.201753) can0 00000F01#0000031500000000
(1712178336.202038) can0 00001001#00DBFC8A00003D86
(1712178336.221397) can0 00000901#0000000000000002
(1712178336.221681) can0 00000E01#0000003300000000
(1712178336.221957) can0 00000F01#0000031500000000
(1712178336.222240) can0 00001001#00DBFC8A00003D86
(1712178336.241621) can0 00000901#0000000000000002
(1712178336.241911) can0 00000E01#0000003300000000
(1712178336.242204) can0 00000F01#0000031500000000
(1712178336.242487) can0 00001001#00DBFC8800003D86
(1712178336.261837) can0 00000901#0000000000000002
(1712178336.262127) can0 00000E01#0000003300000000
(1712178336.262420) can0 00000F01#0000031500000000
(1712178336.262704) can0 00001001#00DBFC8500003D86
(1712178336.282084) can0 00000901#0000000000000002
(1712178336.282374) can0 00000E01#0000003300000000
(1712178336.282666) can0 00000F01#0000031500000000
(1712178336.282951) can0 00001001#00DBFC8600003D86
(1712178336.302311) can0 00000901#0000000000000002
(1712178336.302597) can0 00000E01#0000003300000000
(1712178336.302887) can0 00000F01#0000031500000000
(1712178336.303171) can0 00001001#00DBFC8800003D86
(1712178336.322577) can0 00000901#0000000000000002
(1712178336.322854) can0 00000E01#0000003300000000
(1712178336.323130) can0 00000F01#0000031500000000
(1712178336.323412) can0 00001001#00DBFC8900003D86
(1712178336.342762) can0 00000901#0000000000000001
(1712178336.343051) can0 00000E01#0000003300000000
(1712178336.343342) can0 00000F01#0000031500000000
(1712178336.343628) can0 00001001#00DBFC8A00003D86
(1712178336.363043) can0 00000901#0000000000000002
(1712178336.363329) can0 00000E01#0000003300000000
(1712178336.363621) can0 00000F01#0000031500000000
(1712178336.363907) can0 00001001#00DBFC8C00003D86
(1712178336.383232) can0 00000901#0000000000000002
(1712178336.383520) can0 00000E01#0000003300000000
(1712178336.383810) can0 00000F01#0000031500000000
(1712178336.384098) can0 00001001#00DBFC8D00003D86
(1712178336.403491) can0 00000901#0000000000000002
(1712178336.403780) can0 00000E01#0000003300000000
(1712178336.404070) can0 00000F01#0000031500000000
(1712178336.404365) can0 00001001#00DBFC8C00003D86
(1712178336.423714) can0 00000901#0000000000000002
(1712178336.423985) can0 00000E01#0000003300000000
(1712178336.424274) can0 00000F01#0000031500000000
(1712178336.424557) can0 00001001#00DBFC8B00003D86
(1712178336.443940) can0 00000901#0000000000000002
(1712178336.444229) can0 00000E01#0000003300000000
(1712178336.444519) can0 00000F01#0000031500000000
(1712178336.444805) can0 00001001#00DBFC8B00003D86
(1712178336.464168) can0 00000901#0000000000000002
(1712178336.464449) can0 00000E01#0000003300000000
(1712178336.464755) can0 00000F01#0000031500000000
(1712178336.465020) can0 00001001#00DBFC8900003D86
(1712178336.484402) can0 00000901#0000000000000002
(1712178336.484692) can0 00000E01#0000003300000000
(1712178336.484984) can0 00000F01#0000031500000000
(1712178336.485271) can0 00001001#00DBFC8C00003D86
(1712178336.504642) can0 00000901#0000000000000002
(1712178336.504929) can0 00000E01#0000003300000000
(1712178336.505219) can0 00000F01#0000031500000000
(1712178336.505503) can0 00001001#00DBFC8600003D85
(1712178336.524891) can0 00000901#0000000000000002
(1712178336.525169) can0 00000E01#0000003300000000
(1712178336.525452) can0 00000F01#0000031500000000
(1712178336.525737) can0 00001001#00DBFC8600003D86
(1712178336.545101) can0 00000901#0000000000000002
(1712178336.545374) can0 00000E01#0000003300000000
(1712178336.545663) can0 00000F01#0000031500000000
(1712178336.545947) can0 00001001#00DBFC8600003D86
(1712178336.565359) can0 00000901#0000000000000002
(1712178336.565647) can0 00000E01#0000003300000000
(1712178336.565939) can0 00000F01#0000031500000000
(1712178336.566226) can0 00001001#00DBFC8400003D86
(1712178336.585554) can0 00000901#0000000000000002
(1712178336.585836) can0 00000E01#0000003300000000
(1712178336.586127) can0 00000F01#0000031500000000
(1712178336.586412) can0 00001001#00DBFC8500003D86
(1712178336.605821) can0 00000901#0000000000000003
(1712178336.606097) can0 00000E01#0000003300000000
(1712178336.606387) can0 00000F01#0000031500000000
(1712178336.606671) can0 00001001#00DBFC8600003D86
(1712178336.626034) can0 00000901#0000000000000002
(1712178336.626309) can0 00000E01#0000003300000000
(1712178336.626593) can0 00000F01#0000031500000000
(1712178336.626877) can0 00001001#00DBFC8800003D86
(1712178336.646255) can0 00000901#0000000000000003
(1712178336.646543) can0 00000E01#0000003300000000
(1712178336.646836) can0 00000F01#0000031500000000
(1712178336.647118) can0 00001001#00DBFC8900003D86
(1712178336.666513) can0 00000901#0000000000000002
(1712178336.666781) can0 00000E01#0000003300000000
(1712178336.667068) can0 00000F01#0000031500000000
(1712178336.667343) can0 00001001#00DBFC8500003D86
(1712178336.686733) can0 00000901#0000000000000002
(1712178336.687009) can0 00000E01#0000003300000000
(1712178336.687300) can0 00000F01#0000031500000000
(1712178336.687587) can0 00001001#00DBFC8400003D86
(1712178336.706947) can0 00000901#0000000000000002
(1712178336.707231) can0 00000E01#0000003300000000
(1712178336.707521) can0 00000F01#0000031500000000
(1712178336.707805) can0 00001001#00DBFC8600003D86
(1712178336.727206) can0 00000901#0000000000000002
(1712178336.727486) can0 00000E01#0000003300000000
(1712178336.727765) can0 00000F01#0000031500000000
(1712178336.728051) can0 00001001#00DBFC8400003D86
(1712178336.747406) can0 00000901#0000000000000002
(1712178336.747692) can0 00000E01#0000003300000000
(1712178336.747984) can0 00000F01#0000031500000000
(1712178336.748268) can0 00001001#00DBFC8600003D86
(1712178336.767674) can0 00000901#0000000000000002
(1712178336.767964) can0 00000E01#0000003300000000
(1712178336.768256) can0 00000F01#0000031500000000
(1712178336.768541) can0 00001001#00DBFC8800003D86
(1712178336.787863) can0 00000901#0000000000000002
(1712178336.788154) can0 00000E01#0000003300000000
(1712178336.788446) can0 00000F01#0000031500000000
(1712178336.788740) can0 00001001#00DBFC8500003D86
(1712178336.808124) can0 00000901#0000000000000002
(1712178336.808414) can0 00000E01#0000003300000000
(1712178336.808711) can0 00000F01#0000031500000000
(1712178336.808990) can0 00001001#00DBFC8700003D86
(1712178336.828352) can0 00000901#0000000000000002
(1712178336.828633) can0 00000E01#0000003300000000
(1712178336.828910) can0 00000F01#0000031500000000
(1712178336.829194) can0 00001001#00DBFC8500003D86
(1712178336.848586) can0 00000901#0000000000000002
(1712178336.848876) can0 00000E01#0000003300000000
(1712178336.849168) can0 00000F01#0000031500000000
(1712178336.849457) can0 00001001#00DBFC8500003D86
(1712178336.868811) can0 00000901#0000000000000002
(1712178336.869089) can0 00000E01#0000003300000000
(1712178336.869375) can0 00000F01#0000031500000000
(1712178336.869656) can0 00001001#00DBFC8700003D86
(1712178336.889049) can0 00000901#0000000000000002
(1712178336.889329) can0 00000E01#0000003300000000
(1712178336.889620) can0 00000F01#0000031500000000
(1712178336.889903) can0 00001001#00DBFC8200003D86
(1712178336.909304) can0 00000901#0000000000000002
(1712178336.909589) can0 00000E01#0000003300000000
(1712178336.909880) can0 00000F01#0000031500000000
(1712178336.910166) can0 00001001#00DBFC8400003D86
(1712178336.929528) can0 00000901#0000000000000002
(1712178336.929799) can0 00000E01#0000003300000000
(1712178336.930088) can0 00000F01#0000031500000000
(1712178336.930370) can0 00001001#00DBFC8300003D86
(1712178336.949725) can0 00000901#0000000000000002
(1712178336.950015) can0 00000E01#0000003300000000
(1712178336.950303) can0 00000F01#0000031500000000
(1712178336.950588) can0 00001001#00DBFC8200003D86
(1712178336.969994) can0 00000901#0000000000000001
(1712178336.970281) can0 00000E01#0000003300000000
(1712178336.970572) can0 00000F01#0000031500000000
(1712178336.970857) can0 00001001#00DBFC8100003D86
(1712178336.990213) can0 00000901#0000000000000002
(1712178336.990478) can0 00000E01#0000003300000000
(1712178336.990766) can0 00000F01#0000031500000000
(1712178336.991053) can0 00001001#00DBFC8400003D86
(1712178337.010452) can0 00000901#0000000000000002
(1712178337.010735) can0 00000E01#0000003300000000
(1712178337.011025) can0 00000F01#0000031500000000
(1712178337.011310) can0 00001001#00DBFC8800003D86
(1712178337.030675) can0 00000901#0000000000000002
(1712178337.030950) can0 00000E01#0000003300000000
(1712178337.031234) can0 00000F01#0000031500000000
(1712178337.031512) can0 00001001#00DBFC8900003D86
(1712178337.050893) can0 00000901#0000000000000002
(1712178337.051182) can0 00000E01#0000003300000000
(1712178337.051473) can0 00000F01#0000031500000000
(1712178337.051758) can0 00001001#00DBFC8B00003D86
(1712178337.071119) can0 00000901#0000000000000001
(1712178337.071397) can0 00000E01#0000003300000000
(1712178337.071688) can0 00000F01#0000031500000000
(1712178337.071973) can0 00001001#00DBFC8500003D86
(1712178337.091375) can0 00000901#0000000000000002
(1712178337.091649) can0 00000E01#0000003300000000
(1712178337.091936) can0 00000F01#0000031500000000
(1712178337.092220) can0 00001001#00DBFC8200003D86
(1712178337.111574) can0 00000901#0000000000000002
(1712178337.111865) can0 00000E01#0000003300000000
(1712178337.112156) can0 00000F01#0000031500000000
(1712178337.112447) can0 00001001#00DBFC8000003D86
(1712178337.131847) can0 00000901#0000000000000002
(1712178337.132124) can0 00000E01#0000003300000000
(1712178337.132407) can0 00000F01#0000031500000000
(1712178337.132693) can0 00001001#00DBFC8100003D86
(1712178337.152055) can0 00000901#0000000000000003
(1712178337.152327) can0 00000E01#0000003300000000
(1712178337.152617) can0 00000F01#0000031500000000
(1712178337.152901) can0 00001001#00DBFC8200003D86
(1712178337.172329) can0 00000901#0000000000000002
(1712178337.172602) can0 00000E01#0000003300000000
(1712178337.172892) can0 00000F01#0000031500000000
(1712178337.173176) can0 00001001#00DBFC8300003D86
(1712178337.192502) can0 00000901#0000000000000002
(1712178337.192791) can0 00000E01#0000003300000000
(1712178337.193082) can0 00000F01#0000031500000000
(1712178337.193367) can0 00001001#00DBFC8300003D86
(1712178337.212763) can0 00000901#0000000000000002
(1712178337.213048) can0 00000E01#0000003300000000
(1712178337.213340) can0 00000F01#0000031500000000
(1712178337.213625) can0 00001001#00DBFC8300003D86
(1712178337.232968) can0 00000901#0000000000000002
(1712178337.233254) can0 00000E01#0000003300000000
(1712178337.233546) can0 00000F01#0000031500000000
(1712178337.233831) can0 00001001#00DBFC8200003D86
(1712178337.253233) can0 00000901#0000000000000003
(1712178337.253508) can0 00000E01#0000003300000000
(1712178337.253791) can0 00000F01#0000031500000000
(1712178337.254074) can0 00001001#00DBFC8300003D86
(1712178337.273428) can0 00000901#0000000000000002
(1712178337.273717) can0 00000E01#0000003300000000
(1712178337.274009) can0 00000F01#0000031500000000
(1712178337.274293) can0 00001001#00DBFC8500003D88
(1712178337.293681) can0 00000901#0000000000000002
(1712178337.293965) can0 00000E01#0000003300000000
(1712178337.294255) can0 00000F01#0000031500000000
(1712178337.294539) can0 00001001#00DBFC8300003D86
(1712178337.313907) can0 00000901#0000000000000002
(1712178337.314197) can0 00000E01#0000003300000000
(1712178337.314489) can0 00000F01#0000031500000000
(1712178337.314776) can0 00001001#00DBFC8100003D87
(1712178337.334136) can0 00000901#0000000000000002
(1712178337.334425) can0 00000E01#0000003300000000
(1712178337.334718) can0 00000F01#0000031500000000
(1712178337.335009) can0 00001001#00DBFC8000003D86
(1712178337.354381) can0 00000901#0000000000000002
(1712178337.354655) can0 00000E01#0000003300000000
(1712178337.354939) can0 00000F01#0000031500000000
(1712178337.355225) can0 00001001#00DBFC8400003D86
(1712178337.374629) can0 00000901#0000000000000001
(1712178337.374916) can0 00000E01#0000003300000000
(1712178337.375207) can0 00000F01#0000031500000000
(1712178337.375494) can0 00001001#00DBFC8400003D86
(1712178337.394816) can0 00000901#0000000000000003
(1712178337.395106) can0 00000E01#0000003300000000
(1712178337.395397) can0 00000F01#0000031500000000
(1712178337.395682) can0 00001001#00DBFC8300003D86
(1712178337.415077) can0 00000901#0000000000000001
(1712178337.415366) can0 00000E01#0000003300000000
(1712178337.415659) can0 00000F01#0000031500000000
(1712178337.415944) can0 00001001#00DBFC8300003D86
(1712178337.435280) can0 00000901#0000000000000001
(1712178337.435569) can0 00000E01#0000003300000000
(1712178337.435861) can0 00000F01#0000031500000000
(1712178337.436146) can0 00001001#00DBFC8500003D86
(1712178337.455550) can0 00000901#0000000000000002
(1712178337.455821) can0 00000E01#0000003300000000
(1712178337.456117) can0 00000F01#0000031500000000
(1712178337.456396) can0 00001001#00DBFC8300003D86
(1712178337.475749) can0 00000901#0000000000000002
(1712178337.476037) can0 00000E01#0000003300000000
(1712178337.476335) can0 00000F01#0000031500000000
(1712178337.476617) can0 00001001#00DBFC8500003D86
(1712178337.495997) can0 00000901#0000000000000002
(1712178337.496284) can0 00000E01#0000003300000000
(1712178337.496573) can0 00000F01#0000031500000000
(1712178337.496859) can0 00001001#00DBFC8300003D86
(1712178337.516215) can0 00000901#0000000000000002
(1712178337.516505) can0 00000E01#0000003300000000
(1712178337.516793) can0 00000F01#0000031500000000
(1712178337.517079) can0 00001001#00DBFC8400003D86
(1712178337.536464) can0 00000901#0000000000000002
(1712178337.536756) can0 00000E01#0000003300000000
(1712178337.537043) can0 00000F01#0000031500000000
(1712178337.537323) can0 00001001#00DBFC8200003D86
(1712178337.556696) can0 00000901#0000000000000003
(1712178337.556977) can0 00000E01#0000003300000000
(1712178337.557255) can0 00000F01#0000031500000000
(1712178337.557538) can0 00001001#00DBFC8600003D86
(1712178337.576953) can0 00000901#0000000000000002
(1712178337.577244) can0 00000E01#0000003300000000
(1712178337.577532) can0 00000F01#0000031500000000
(1712178337.577817) can0 00001001#00DBFC8500003D86
(1712178337.597146) can0 00000901#0000000000000002
(1712178337.597429) can0 00000E01#0000003300000000
(1712178337.597719) can0 00000F01#0000031500000000
(1712178337.598003) can0 00001001#00DBFC8100003D86
(1712178337.617417) can0 00000901#0000000000000002
(1712178337.617689) can0 00000E01#0000003300000000
(1712178337.617978) can0 00000F01#0000031500000000
(1712178337.618263) can0 00001001#00DBFC8300003D86
(1712178337.637600) can0 00000901#0000000000000003
(1712178337.637886) can0 00000E01#0000003300000000
(1712178337.638179) can0 00000F01#0000031500000000
(1712178337.638464) can0 00001001#00DBFC8200003D86
(1712178337.657885) can0 00000901#0000000000000002
(1712178337.658161) can0 00000E01#0000003300000000
(1712178337.658446) can0 00000F01#0000031500000000
(1712178337.658730) can0 00001001#00DBFC8300003D86
(1712178337.678071) can0 00000901#0000000000000002
(1712178337.678355) can0 00000E01#0000003300000000
(1712178337.678644) can0 00000F01#0000031500000000
(1712178337.678930) can0 00001001#00DBFC8200003D86
(1712178337.698323) can0 00000901#0000000000000002
(1712178337.698602) can0 00000E01#0000003300000000
(1712178337.698891) can0 00000F01#0000031500000000
(1712178337.699175) can0 00001001#00DBFC8200003D86
(1712178337.718543) can0 00000901#0000000000000002
(1712178337.718834) can0 00000E01#0000003300000000
(1712178337.719125) can0 00000F01#0000031500000000
(1712178337.719412) can0 00001001#00DBFC8400003D86
(1712178337.738770) can0 00000901#0000000000000003
(1712178337.739060) can0 00000E01#0000003300000000
(1712178337.739353) can0 00000F01#0000031500000000
(1712178337.739638) can0 00001001#00DBFC8500003D86
(1712178337.759013) can0 00000901#0000000000000002
(1712178337.759290) can0 00000E01#0000003300000000
(1712178337.759575) can0 00000F01#0000031500000000
(1712178337.759859) can0 00001001#00DBFC7F00003D86
(1712178337.779273) can0 00000901#0000000000000002
(1712178337.779555) can0 00000E01#0000003300000000
(1712178337.779846) can0 00000F01#0000031500000000
(1712178337.780135) can0 00001001#00DBFC8000003D85
(1712178337.799469) can0 00000901#0000000000000002
(1712178337.799749) can0 00000E01#0000003300000000
(1712178337.800039) can0 00000F01#0000031500000000
(1712178337.800322) can0 00001001#00DBFC8100003D86
(1712178337.819713) can0 00000901#0000000000000003
(1712178337.820001) can0 00000E01#0000003300000000
(1712178337.820293) can0 00000F01#0000031500000000
(1712178337.820579) can0 00001001#00DBFC8200003D86
(1712178337.839914) can0 00000901#0000000000000002
(1712178337.840206) can0 00000E01#0000003300000000
(1712178337.840499) can0 00000F01#0000031500000000
(1712178337.840786) can0 00001001#00DBFC8800003D86
(1712178337.860190) can0 00000901#0000000000000002
(1712178337.860472) can0 00000E01#0000003300000000
(1712178337.860761) can0 00000F01#0000031500000000
(1712178337.861029) can0 00001001#00DBFC8600003D86
(1712178337.880383) can0 00000901#0000000000000002
(1712178337.880670) can0 00000E01#0000003300000000
(1712178337.880962) can0 00000F01#0000031500000000
(1712178337.881246) can0 00001001#00DBFC8500003D86
(1712178337.900637) can0 00000901#0000000000000003
(1712178337.900919) can0 00000E01#0000003300000000
(1712178337.901206) can0 00000F01#0000031500000000
(1712178337.901488) can0 00001001#00DBFC8500003D89
(1712178337.920850) can0 00000901#0000000000000002
(1712178337.921136) can0 00000E01#0000003300000000
(1712178337.921428) can0 00000F01#0000031500000000
(1712178337.921711) can0 00001001#00DBFC8700003D87
(1712178337.941088) can0 00000901#0000000000000001
(1712178337.941377) can0 00000E01#0000003300000000
(1712178337.941669) can0 00000F01#0000031500000000
(1712178337.941954) can0 00001001#00DBFC8600003D86
(1712178337.961332) can0 00000901#0000000000000001
(1712178337.961612) can0 00000E01#0000003300000000
(1712178337.961889) can0 00000F01#0000031500000000
(1712178337.962178) can0 00001001#00DBFC8400003D85
(1712178337.981600) can0 00000901#0000000000000002
(1712178337.981874) can0 00000E01#0000003300000000
(1712178337.982164) can0 00000F01#0000031500000000
(1712178337.982448) can0 00001001#00DBFC8300003D86
(1712178338.001793) can0 00000901#0000000000000002
(1712178338.002066) can0 00000E01#0000003300000000
(1712178338.002355) can0 00000F01#0000031500000000
(1712178338.002640) can0 00001001#00DBFC8500003D86
(1712178338.022046) can0 00000901#0000000000000002
(1712178338.022325) can0 00000E01#0000003300000000
(1712178338.022614) can0 00000F01#0000031500000000
(1712178338.022900) can0 00001001#00DBFC8800003D86
(1712178338.042242) can0 00000901#0000000000000002
(1712178338.042526) can0 00000E01#0000003300000000
(1712178338.042819) can0 00000F01#0000031500000000
(1712178338.043103) can0 00001001#00DBFC8B00003D86
(1712178338.062508) can0 00000901#0000000000000002
(1712178338.062782) can0 00000E01#0000003300000000
(1712178338.063066) can0 00000F01#0000031500000000
(1712178338.063349) can0 00001001#00DBFC8A00003D86
(1712178338.082712) can0 00000901#0000000000000002
(1712178338.082992) can0 00000E01#0000003300000000
(1712178338.083282) can0 00000F01#0000031500000000
(1712178338.083567) can0 00001001#00DBFC8800003D86
(1712178338.102953) can0 00000901#0000000000000003
(1712178338.103236) can0 00000E01#0000003300000000
(1712178338.103525) can0 00000F01#0000031500000000
(1712178338.103809) can0 00001001#00DBFC8800003D86
(1712178338.123186) can0 00000901#0000000000000002
(1712178338.123472) can0 00000E01#0000003300000000
(1712178338.123762) can0 00000F01#0000031500000000
(1712178338.124045) can0 00001001#00DBFC8900003D86
(1712178338.143407) can0 00000901#0000000000000002
(1712178338.143698) can0 00000E01#0000003300000000
(1712178338.143990) can0 00000F01#0000031500000000
(1712178338.144275) can0 00001001#00DBFC8800003D86
(1712178338.163674) can0 00000901#0000000000000001
(1712178338.163925) can0 00000E01#0000003300000000
(1712178338.164223) can0 00000F01#0000031500000000
(1712178338.164500) can0 00001001#00DBFC8900003D86
(1712178338.183921) can0 00000901#0000000000000002
(1712178338.184196) can0 00000E01#0000003300000000
(1712178338.184484) can0 00000F01#0000031500000000
(1712178338.184770) can0 00001001#00DBFC8A00003D86
(1712178338.204089) can0 00000901#0000000000000002
(1712178338.204378) can0 00000E01#0000003300000000
(1712178338.204671) can0 00000F01#0000031500000000
(1712178338.204956) can0 00001001#00DBFC8900003D86
(1712178338.224357) can0 00000901#0000000000000003
(1712178338.224639) can0 00000E01#0000003300000000
(1712178338.224932) can0 00000F01#0000031500000000
(1712178338.225215) can0 00001001#00DBFC8900003D86
(1712178338.244552) can0 00000901#0000000000000002
(1712178338.244844) can0 00000E01#0000003300000000
(1712178338.245135) can0 00000F01#0000031500000000
(1712178338.245419) can0 00001001#00DBFC8900003D86
(1712178338.264802) can0 00000901#0000000000000003
(1712178338.265105) can0 00000E01#0000003300000000
(1712178338.265395) can0 00000F01#0000031500000000
(1712178338.265678) can0 00001001#00DBFC8A00003D86
(1712178338.285043) can0 00000901#0000000000000002
(1712178338.285311) can0 00000E01#0000003300000000
(1712178338.285606) can0 00000F01#0000031500000000
(1712178338.285886) can0 00001001#00DBFC8D00003D86
(1712178338.305280) can0 00000901#0000000000000001
(1712178338.305560) can0 00000E01#0000003300000000
(1712178338.305847) can0 00000F01#0000031500000000
(1712178338.306132) can0 00001001#00DBFC8C00003D86
(1712178338.325487) can0 00000901#0000000000000002
(1712178338.325775) can0 00000E01#0000003300000000
(1712178338.326066) can0 00000F01#0000031500000000
(1712178338.326352) can0 00001001#00DBFC8C00003D86
(1712178338.345728) can0 00000901#0000000000000002
(1712178338.346019) can0 00000E01#0000003300000000
(1712178338.346310) can0 00000F01#0000031500000000
(1712178338.346597) can0 00001001#00DBFC8A00003D86
(1712178338.365944) can0 00000901#0000000000000002
(1712178338.366232) can0 00000E01#0000003300000000
(1712178338.366525) can0 00000F01#0000031500000000
(1712178338.366807) can0 00001001#00DBFC8F00003D86
(1712178338.386252) can0 00000901#0000000000000002
(1712178338.386521) can0 00000E01#0000003300000000
(1712178338.386818) can0 00000F01#0000031500000000
(1712178338.387113) can0 00001001#00DBFC8E00003D86
(1712178338.406444) can0 00000901#0000000000000002
(1712178338.406711) can0 00000E01#0000003300000000
(1712178338.407004) can0 00000F01#0000031500000000
(1712178338.407287) can0 00001001#00DBFC8D00003D86
(1712178338.426701) can0 00000901#0000000000000003
(1712178338.426969) can0 00000E01#0000003300000000
(1712178338.427266) can0 00000F01#0000031500000000
(1712178338.427548) can0 00001001#00DBFC8C00003D86
(1712178338.446909) can0 00000901#0000000000000002
(1712178338.447170) can0 00000E01#0000003300000000
(1712178338.447467) can0 00000F01#0000031500000000
(1712178338.447750) can0 00001001#00DBFC8A00003D86
(1712178338.467157) can0 00000901#0000000000000002
(1712178338.467418) can0 00000E01#0000003300000000
(1712178338.467711) can0 00000F01#0000031500000000
(1712178338.467995) can0 00001001#00DBFC8600003D86
(1712178338.487372) can0 00000901#0000000000000002
(1712178338.487639) can0 00000E01#0000003300000000
(1712178338.487932) can0 00000F01#0000031500000000
(1712178338.488214) can0 00001001#00DBFC8500003D86
(1712178338.507614) can0 00000901#0000000000000001
(1712178338.507883) can0 00000E01#0000003300000000
(1712178338.508172) can0 00000F01#0000031500000000
(1712178338.508452) can0 00001001#00DBFC8500003D86
(1712178338.527856) can0 00000901#0000000000000002
(1712178338.528116) can0 00000E01#0000003300000000
(1712178338.528398) can0 00000F01#0000031500000000
(1712178338.528702) can0 00001001#00DBFC8000003D86
(1712178338.548083) can0 00000901#0000000000000002
(1712178338.548368) can0 00000E01#0000003300000000
(1712178338.548657) can0 00000F01#0000031500000000
(1712178338.548927) can0 00001001#00DBFC8300003D86
(1712178338.568326) can0 00000901#0000000000000003
(1712178338.568581) can0 00000E01#0000003300000000
(1712178338.568865) can0 00000F01#0000031500000000
(1712178338.569171) can0 00001001#00DBFC7D00003D86
(1712178338.588573) can0 00000901#000000000000FFFE
(1712178338.588833) can0 00000E01#0000003300000000
(1712178338.589136) can0 00000F01#0000031500000000
(1712178338.589415) can0 00001001#00DBFC7E00003D86
(1712178338.608781) can0 00000901#0000000000000002
(1712178338.609030) can0 00000E01#0000003300000000
(1712178338.609319) can0 00000F01#0000031500000000
(1712178338.609613) can0 00001001#00DBFC7D00003D86
(1712178338.629015) can0 00000901#0000000000000002
(1712178338.629291) can0 00000E01#0000003300000000
(1712178338.629581) can0 00000F01#0000031500000000
(1712178338.629866) can0 00001001#00DBFC8300003D86
(1712178338.649221) can0 00000901#0000000000000002
(1712178338.649489) can0 00000E01#0000003300000000
(1712178338.649778) can0 00000F01#0000031500000000
(1712178338.650066) can0 00001001#00DBFC8400003D86
(1712178338.669466) can0 00000901#0000000000000002
(1712178338.669740) can0 00000E01#0000003300000000
(1712178338.670034) can0 00000F01#0000031500000000
(1712178338.670317) can0 00001001#00DBFC8200003D86
(1712178338.689698) can0 00000901#0000000000000002
(1712178338.689952) can0 00000E01#0000003300000000
(1712178338.690243) can0 00000F01#0000031500000000
(1712178338.690535) can0 00001001#00DBFC8300003D86
(1712178338.709939) can0 00000901#0000000000000002
(1712178338.710224) can0 00000E01#0000003300000000
(1712178338.710500) can0 00000F01#0000031500000000
(1712178338.710775) can0 00001001#00DBFC8300003D86
(1712178338.730150) can0 00000901#0000000000000002
(1712178338.730419) can0 00000E01#0000003300000000
(1712178338.730714) can0 00000F01#0000031500000000
(1712178338.730994) can0 00001001#00DBFC8200003D86
(1712178338.750404) can0 00000901#0000000000000002
(1712178338.750657) can0 00000E01#0000003300000000
(1712178338.750956) can0 00000F01#0000031500000000
(1712178338.751236) can0 00001001#00DBFC8400003D86
(1712178338.770619) can0 00000901#0000000000000002
(1712178338.770881) can0 00000E01#0000003300000000
(1712178338.771173) can0 00000F01#0000031500000000
(1712178338.771459) can0 00001001#00DBFC8600003D86
(1712178338.790890) can0 00000901#0000000000000002
(1712178338.791155) can0 00000E01#0000003300000000
(1712178338.791455) can0 00000F01#0000031500000000
(1712178338.791766) can0 00001001#00DBFC8600003D86
(1712178338.811077) can0 00000901#0000000000000001
(1712178338.811343) can0 00000E01#0000003300000000
(1712178338.811632) can0 00000F01#0000031500000000
(1712178338.811916) can0 00001001#00DBFC8200003D86
(1712178338.831340) can0 00000901#0000000000000002
(1712178338.831601) can0 00000E01#0000003300000000
(1712178338.831897) can0 00000F01#0000031500000000
(1712178338.832183) can0 00001001#00DBFC8200003D86
(1712178338.851537) can0 00000901#0000000000000002
(1712178338.851811) can0 00000E01#0000003300000000
(1712178338.852113) can0 00000F01#0000031500000000
(1712178338.852401) can0 00001001#00DBFC8300003D86
(1712178338.871784) can0 00000901#0000000000000002
(1712178338.872053) can0 00000E01#0000003300000000
(1712178338.872348) can0 00000F01#0000031500000000
(1712178338.872626) can0 00001001#00DBFC8700003D86
(1712178338.892004) can0 00000901#0000000000000002
(1712178338.892271) can0 00000E01#0000003300000000
(1712178338.892563) can0 00000F01#0000031500000000
(1712178338.892843) can0 00001001#00DBFC8700003D86
(1712178338.912253) can0 00000901#0000000000000002
(1712178338.912515) can0 00000E01#0000003300000000
(1712178338.912810) can0 00000F01#0000031500000000
(1712178338.913099) can0 00001001#00DBFC8800003D86
(1712178338.932506) can0 00000901#0000000000000002
(1712178338.932790) can0 00000E01#0000003300000000
(1712178338.933069) can0 00000F01#0000031500000000
(1712178338.933357) can0 00001001#00DBFC8900003D86
(1712178338.952714) can0 00000901#0000000000000002
(1712178338.952980) can0 00000E01#0000003300000000
(1712178338.953273) can0 00000F01#0000031500000000
(1712178338.953562) can0 00001001#00DBFC8700003D86
(1712178338.972931) can0 00000901#0000000000000002
(1712178338.973215) can0 00000E01#0000003300000000
(1712178338.973487) can0 00000F01#0000031500000000
(1712178338.973769) can0 00001001#00DBFC8900003D86
(1712178338.993199) can0 00000901#0000000000000002
(1712178338.993479) can0 00000E01#0000003300000000
(1712178338.993772) can0 00000F01#0000031500000000
(1712178338.994049) can0 00001001#00DBFC8800003D86
(1712178339.013390) can0 00000901#0000000000000002
(1712178339.013673) can0 00000E01#0000003300000000
(1712178339.013951) can0 00000F01#0000031500000000
(1712178339.014238) can0 00001001#00DBFC8800003D86
(1712178339.033652) can0 00000901#0000000000000002
(1712178339.033925) can0 00000E01#0000003300000000
(1712178339.034221) can0 00000F01#0000031500000000
(1712178339.034499) can0 00001001#00DBFC8900003D86
(1712178339.053861) can0 00000901#0000000000000002
(1712178339.054123) can0 00000E01#0000003300000000
(1712178339.054420) can0 00000F01#0000031500000000
(1712178339.054707) can0 00001001#00DBFC8900003D86
(1712178339.074102) can0 00000901#0000000000000002
(1712178339.074372) can0 00000E01#0000003300000000
(1712178339.074667) can0 00000F01#0000031500000000
(1712178339.074949) can0 00001001#00DBFC8600003D86
(1712178339.094316) can0 00000901#0000000000000002
(1712178339.094590) can0 00000E01#0000003300000000
(1712178339.094882) can0 00000F01#0000031500000000
(1712178339.095164) can0 00001001#00DBFC8B00003D86
(1712178339.114567) can0 00000901#0000000000000002
(1712178339.114832) can0 00000E01#0000003300000000
(1712178339.115127) can0 00000F01#0000031500000000
(1712178339.115413) can0 00001001#00DBFC8700003D86
(1712178339.134785) can0 00000901#0000000000000003
(1712178339.135056) can0 00000E01#0000003300000000
(1712178339.135347) can0 00000F01#0000031500000000
(1712178339.135628) can0 00001001#00DBFC8900003D86
(1712178339.155040) can0 00000901#0000000000000002
(1712178339.155300) can0 00000E01#0000003300000000
(1712178339.155591) can0 00000F01#0000031500000000
(1712178339.155876) can0 00001001#00DBFC8900003D86
(1712178339.175256) can0 00000901#0000000000000002
(1712178339.175515) can0 00000E01#0000003300000000
(1712178339.175809) can0 00000F01#0000031500000000
(1712178339.176093) can0 00001001#00DBFC8B00003D86
(1712178339.195526) can0 00000901#0000000000000002
(1712178339.195791) can0 00000E01#0000003300000000
(1712178339.196084) can0 00000F01#0000031500000000
(1712178339.196364) can0 00001001#00DBFC8900003D86
(1712178339.215716) can0 00000901#0000000000000002
(1712178339.215981) can0 00000E01#0000003300000000
(1712178339.216277) can0 00000F01#0000031500000000
(1712178339.216555) can0 00001001#00DBFC8900003D86
(1712178339.235976) can0 00000901#0000000000000002
(1712178339.236244) can0 00000E01#0000003300000000
(1712178339.236535) can0 00000F01#0000031500000000
(1712178339.236818) can0 00001001#00DBFC8800003D86
(1712178339.256185) can0 00000901#0000000000000002
(1712178339.256443) can0 00000E01#0000003300000000
(1712178339.256768) can0 00000F01#0000031500000000
(1712178339.257024) can0 00001001#00DBFC8800003D86
(1712178339.276432) can0 00000901#0000000000000002
(1712178339.276693) can0 00000E01#0000003300000000
(1712178339.276982) can0 00000F01#0000031500000000
(1712178339.277271) can0 00001001#00DBFC8500003D86
(1712178339.296641) can0 00000901#0000000000000001
(1712178339.296908) can0 00000E01#0000003300000000
(1712178339.297202) can0 00000F01#0000031500000000
(1712178339.297486) can0 00001001#00DBFC8500003D86
(1712178339.316883) can0 00000901#0000000000000002
(1712178339.317172) can0 00000E01#0000003300000000
(1712178339.317455) can0 00000F01#0000031500000000
(1712178339.317743) can0 00001001#00DBFC8500003D86
(1712178339.337121) can0 00000901#0000000000000002
(1712178339.337399) can0 00000E01#0000003300000000
(1712178339.337692) can0 00000F01#0000031500000000
(1712178339.337972) can0 00001001#00DBFC8600003D86
(1712178339.357357) can0 00000901#0000000000000002
(1712178339.357618) can0 00000E01#0000003300000000
(1712178339.357923) can0 00000F01#0000031500000000
(1712178339.358205) can0 00001001#00DBFC8800003D86
(1712178339.377574) can0 00000901#0000000000000001
(1712178339.377841) can0 00000E01#0000003300000000
(1712178339.378132) can0 00000F01#0000031500000000
(1712178339.378415) can0 00001001#00DBFC8600003D86
(1712178339.397856) can0 00000901#0000000000000002
(1712178339.398114) can0 00000E01#0000003300000000
(1712178339.398422) can0 00000F01#0000031500000000
(1712178339.398695) can0 00001001#00DBFC8100003D86
(1712178339.418084) can0 00000901#0000000000000002
(1712178339.418317) can0 00000E01#0000003300000000
(1712178339.418633) can0 00000F01#0000031500000000
(1712178339.418914) can0 00001001#00DBFC8300003D86
(1712178339.438333) can0 00000901#0000000000000002
(1712178339.438592) can0 00000E01#0000003300000000
(1712178339.438879) can0 00000F01#0000031500000000
(1712178339.439152) can0 00001001#00DBFC8100003D86
(1712178339.458496) can0 00000901#0000000000000003
(1712178339.458762) can0 00000E01#0000003300000000
(1712178339.459056) can0 00000F01#0000031500000000
(1712178339.459339) can0 00001001#00DBFC8400003D86
(1712178339.478747) can0 00000901#0000000000000002
(1712178339.479008) can0 00000E01#0000003300000000
(1712178339.479308) can0 00000F01#0000031500000000
(1712178339.479586) can0 00001001#00DBFC8300003D86
(1712178339.498958) can0 00000901#0000000000000002
(1712178339.499225) can0 00000E01#0000003300000000
(1712178339.499522) can0 00000F01#0000031500000000
(1712178339.499802) can0 00001001#00DBFC8200003D86
(1712178339.519253) can0 00000901#0000000000000002
(1712178339.519479) can0 00000E01#0000003300000000
(1712178339.519783) can0 00000F01#0000031500000000
(1712178339.520059) can0 00001001#00DBFC8000003D86
(1712178339.539427) can0 00000901#0000000000000001
(1712178339.539686) can0 00000E01#0000003300000000
(1712178339.539983) can0 00000F01#0000031500000000
(1712178339.540272) can0 00001001#00DBFC8200003D86
(1712178339.559670) can0 00000901#0000000000000002
(1712178339.559933) can0 00000E01#0000003300000000
(1712178339.560230) can0 00000F01#0000031500000000
(1712178339.560512) can0 00001001#00DBFC8100003D86
(1712178339.579896) can0 00000901#0000000000000003
(1712178339.580150) can0 00000E01#0000003300000000
(1712178339.580445) can0 00000F01#0000031500000000
(1712178339.580751) can0 00001001#00DBFC8100003D86
(1712178339.600175) can0 00000901#0000000000000002
(1712178339.600428) can0 00000E01#0000003300000000
(1712178339.600722) can0 00000F01#0000031500000000
(1712178339.601009) can0 00001001#00DBFC8500003D86
(1712178339.620349) can0 00000901#0000000000000002
(1712178339.620612) can0 00000E01#0000003300000000
(1712178339.620905) can0 00000F01#0000031500000000
(1712178339.621189) can0 00001001#00DBFC8600003D86
(1712178339.640611) can0 00000901#0000000000000002
(1712178339.640872) can0 00000E01#0000003300000000
(1712178339.641168) can0 00000F01#0000031500000000
(1712178339.641448) can0 00001001#00DBFC8700003D86
(1712178339.660852) can0 00000901#0000000000000002
(1712178339.661078) can0 00000E01#0000003300000000
(1712178339.661378) can0 00000F01#0000031500000000
(1712178339.661662) can0 00001001#00DBFC8700003D86
(1712178339.681082) can0 00000901#0000000000000002
(1712178339.681354) can0 00000E01#0000003300000000
(1712178339.681645) can0 00000F01#0000031500000000
(1712178339.681930) can0 00001001#00DBFC8300003D86
(1712178339.701339) can0 00000901#0000000000000002
(1712178339.701555) can0 00000E01#0000003300000000
(1712178339.701863) can0 00000F01#0000031500000000
(1712178339.702163) can0 00001001#00DBFC8500003D86
(1712178339.721526) can0 00000901#0000000000000002
(1712178339.721791) can0 00000E01#0000003300000000
(1712178339.722083) can0 00000F01#0000031500000000
(1712178339.722365) can0 00001001#00DBFC8700003D86
(1712178339.741757) can0 00000901#0000000000000002
(1712178339.742023) can0 00000E01#0000003300000000
(1712178339.742319) can0 00000F01#0000031500000000
(1712178339.742599) can0 00001001#00DBFC8600003D85
(1712178339.761986) can0 00000901#0000000000000002
(1712178339.762255) can0 00000E01#0000003300000000
(1712178339.762556) can0 00000F01#0000031500000000
(1712178339.762838) can0 00001001#00DBFC8800003D86
(1712178339.782202) can0 00000901#0000000000000001
(1712178339.782467) can0 00000E01#0000003300000000
(1712178339.782761) can0 00000F01#0000031500000000
(1712178339.783051) can0 00001001#00DBFC8A00003D86
(1712178339.802480) can0 00000901#0000000000000002
(1712178339.802745) can0 00000E01#0000003300000000
(1712178339.803039) can0 00000F01#0000031500000000
(1712178339.803324) can0 00001001#00DBFC8C00003D86
(1712178339.822669) can0 00000901#0000000000000002
(1712178339.822933) can0 00000E01#0000003300000000
(1712178339.823223) can0 00000F01#0000031500000000
(1712178339.823514) can0 00001001#00DBFC8E00003D86
(1712178339.842940) can0 00000901#0000000000000002
(1712178339.843186) can0 00000E01#0000003300000000
(1712178339.843483) can0 00000F01#0000031500000000
(1712178339.843766) can0 00001001#00DBFC8B00003D86
(1712178339.863194) can0 00000901#0000000000000002
(1712178339.863395) can0 00000E01#0000003300000000
(1712178339.863700) can0 00000F01#0000031500000000
(1712178339.863989) can0 00001001#00DBFC8C00003D86
(1712178339.883407) can0 00000901#0000000000000002
(1712178339.883640) can0 00000E01#0000003300000000
(1712178339.883940) can0 00000F01#0000031500000000
(1712178339.884225) can0 00001001#00DBFC8E00003D86
(1712178339.903592) can0 00000901#0000000000000002
(1712178339.903862) can0 00000E01#0000003300000000
(1712178339.904151) can0 00000F01#0000031500000000
(1712178339.904442) can0 00001001#00DBFC8F00003D86
(1712178339.923835) can0 00000901#0000000000000002
(1712178339.924106) can0 00000E01#0000003300000000
(1712178339.924405) can0 00000F01#0000031500000000
(1712178339.924687) can0 00001001#00DBFC9000003D86
(1712178339.944061) can0 00000901#0000000000000002
(1712178339.944322) can0 00000E01#0000003300000000
(1712178339.944617) can0 00000F01#0000031500000000
(1712178339.944900) can0 00001001#00DBFC8F00003D86
(1712178339.964310) can0 00000901#0000000000000002
(1712178339.964570) can0 00000E01#0000003300000000
(1712178339.964861) can0 00000F01#0000031500000000
(1712178339.965147) can0 00001001#00DBFC8B00003D86
(1712178339.984518) can0 00000901#0000000000000002
(1712178339.984782) can0 00000E01#0000003300000000
(1712178339.985088) can0 00000F01#0000031500000000
(1712178339.985363) can0 00001001#00DBFC8C00003D86
(1712178340.004799) can0 00000901#0000000000000002
(1712178340.005060) can0 00000E01#0000003300000000
(1712178340.005350) can0 00000F01#0000031500000000
(1712178340.005637) can0 00001001#00DBFC8C00003D86
(1712178340.025012) can0 00000901#0000000000000002
(1712178340.025263) can0 00000E01#0000003300000000
(1712178340.025564) can0 00000F01#0000031500000000
(1712178340.025838) can0 00001001#00DBFC8800003D86
(1712178340.045242) can0 00000901#0000000000000002
(1712178340.045519) can0 00000E01#0000003300000000
(1712178340.045819) can0 00000F01#0000031500000000
(1712178340.046096) can0 00001001#00DBFC8A00003D86
(1712178340.065448) can0 00000901#0000000000000002
(1712178340.065716) can0 00000E01#0000003300000000
(1712178340.066014) can0 00000F01#0000031500000000
(1712178340.066287) can0 00001001#00DBFC8A00003D86
(1712178340.085689) can0 00000901#0000000000000001
(1712178340.085955) can0 00000E01#0000003300000000
(1712178340.086248) can0 00000F01#0000031500000000
(1712178340.086531) can0 00001001#00DBFC8800003D86
(1712178340.105906) can0 00000901#0000000000000002
(1712178340.106173) can0 00000E01#0000003300000000
(1712178340.106468) can0 00000F01#0000031500000000
(1712178340.106754) can0 00001001#00DBFC8600003D86
(1712178340.126155) can0 00000901#0000000000000002
(1712178340.126420) can0 00000E01#0000003300000000
(1712178340.126713) can0 00000F01#0000031500000000
(1712178340.127000) can0 00001001#00DBFC8800003D86
(1712178340.146386) can0 00000901#0000000000000002
(1712178340.146655) can0 00000E01#0000003300000000
(1712178340.146946) can0 00000F01#0000031500000000
(1712178340.147237) can0 00001001#00DBFC8400003D86
(1712178340.166622) can0 00000901#0000000000000002
(1712178340.166884) can0 00000E01#0000003300000000
(1712178340.167180) can0 00000F01#0000031500000000
(1712178340.167465) can0 00001001#00DBFC8400003D86
(1712178340.186828) can0 00000901#0000000000000002
(1712178340.187102) can0 00000E01#0000003300000000
(1712178340.187392) can0 00000F01#0000031500000000
(1712178340.187679) can0 00001001#00DBFC8500003D86
(1712178340.207111) can0 00000901#0000000000000002
(1712178340.207376) can0 00000E01#0000003300000000
(1712178340.207669) can0 00000F01#0000031500000000
(1712178340.207960) can0 00001001#00DBFC8400003D86
(1712178340.227296) can0 00000901#0000000000000002
(1712178340.227563) can0 00000E01#0000003300000000
(1712178340.227856) can0 00000F01#0000031500000000
(1712178340.228142) can0 00001001#00DBFC8600003D86
(1712178340.247559) can0 00000901#0000000000000002
(1712178340.247825) can0 00000E01#0000003300000000
(1712178340.248121) can0 00000F01#0000031500000000
(1712178340.248401) can0 00001001#00DBFC8700003D86
(1712178340.267755) can0 00000901#0000000000000003
(1712178340.268026) can0 00000E01#0000003300000000
(1712178340.268320) can0 00000F01#0000031500000000
(1712178340.268601) can0 00001001#00DBFC8700003D87
(1712178340.288005) can0 00000901#0000000000000002
(1712178340.288279) can0 00000E01#0000003300000000
(1712178340.288571) can0 00000F01#0000031500000000
(1712178340.288855) can0 00001001#00DBFC8700003D86
(1712178340.308226) can0 00000901#0000000000000002
(1712178340.308491) can0 00000E01#0000003300000000
(1712178340.308794) can0 00000F01#0000031500000000
(1712178340.309069) can0 00001001#00DBFC8300003D86
(1712178340.328476) can0 00000901#0000000000000002
(1712178340.328812) can0 00000E01#0000003300000000
(1712178340.329028) can0 00000F01#0000031500000000
(1712178340.329321) can0 00001001#00DBFC8400003D86
(1712178340.348694) can0 00000901#0000000000000002
(1712178340.348955) can0 00000E01#0000003300000000
(1712178340.349250) can0 00000F01#0000031500000000
(1712178340.349538) can0 00001001#00DBFC8500003D86
(1712178340.368937) can0 00000901#0000000000000002
(1712178340.369218) can0 00000E01#0000003300000000
(1712178340.369496) can0 00000F01#0000031500000000
(1712178340.369782) can0 00001001#00DBFC8400003D86
(1712178340.389159) can0 00000901#0000000000000002
(1712178340.389422) can0 00000E01#0000003300000000
(1712178340.389716) can0 00000F01#0000031500000000
(1712178340.389997) can0 00001001#00DBFC8100003D86
(1712178340.409430) can0 00000901#0000000000000001
(1712178340.409691) can0 00000E01#0000003300000000
(1712178340.409986) can0 00000F01#0000031500000000
(1712178340.410273) can0 00001001#00DBFC8400003D86
(1712178340.429623) can0 00000901#0000000000000002
(1712178340.429894) can0 00000E01#0000003300000000
(1712178340.430202) can0 00000F01#0000031500000000
(1712178340.430472) can0 00001001#00DBFC8700003D86
(1712178340.449882) can0 00000901#0000000000000002
(1712178340.450143) can0 00000E01#0000003300000000
(1712178340.450436) can0 00000F01#0000031500000000
(1712178340.450723) can0 00001001#00DBFC8400003D86
(1712178340.470102) can0 00000901#0000000000000002
(1712178340.470366) can0 00000E01#0000003300000000
(1712178340.470665) can0 00000F01#0000031500000000
(1712178340.470944) can0 00001001#00DBFC8500003D86
